Command: /home/harishkv/automation/Automated_regression/regression/final/./gen_exe_apb_write_verify_test +UVM_TESTNAME=apb_write_verify_test -l log/2024-04-15_11:22:06_apb_write_verify_test.log
Chronologic VCS simulator copyright 1991-2023
Contains Synopsys proprietary information.
Compiler version U-2023.03-1; Runtime version U-2023.03-1;  Apr 15 11:22 2024
UVM_INFO /work/tools/synopsys/vcs/U-2023.03-1/etc/uvm-1.2/base/uvm_root.svh(402) @ 0: reporter [UVM/RELNOTES] 
----------------------------------------------------------------
UVM-1.2.Synopsys
(C) 2007-2014 Mentor Graphics Corporation
(C) 2007-2014 Cadence Design Systems, Inc.
(C) 2006-2014 Synopsys, Inc.
(C) 2011-2013 Cypress Semiconductor Corp.
(C) 2013-2014 NVIDIA Corporation
----------------------------------------------------------------

  ***********       IMPORTANT RELEASE NOTES         ************

  You are using a version of the UVM library that has been compiled
  with `UVM_NO_DEPRECATED undefined.
  See http://www.eda.org/svdb/view.php?id=3313 for more details.

  You are using a version of the UVM library that has been compiled
  with `UVM_OBJECT_DO_NOT_NEED_CONSTRUCTOR undefined.
  See http://www.eda.org/svdb/view.php?id=3770 for more details.

      (Specify +UVM_NO_RELNOTES to turn off this notice)

UVM_INFO @ 0: reporter [RNTST] Running test apb_write_verify_test...
UVM_INFO /home/harishkv/automation/Automated_regression/regression/final/src/apb_write_verify_test.sv(27) @ 0: uvm_test_top [apb_write_verify_test] 
-----------------------------------------
Name   Type                  Size  Value 
-----------------------------------------
m_seq  apb_write_verify_seq  -     @666  
  req  object                -     <null>
  rsp  object                -     <null>
-----------------------------------------

--------
APB write at clocks 13/14, time=140:
  A='h0014, D='h2385, ERROR='h0
UVM_INFO /home/harishkv/automation/Automated_regression/regression/final/agents/apb/src/apb_monitor.sv(34) @ 15000: uvm_test_top.m_env.m_apb_agent.m_apb_monitor [apb_monitor] ADDR: 0014, TYPE: 1, PRDATA: xxxx, PWDATA: 2385
UVM_INFO /home/harishkv/automation/Automated_regression/regression/final/agents/apb/src/apb_reg_adapter.sv(30) @ 15000: reporter [apb_reg_adapter] ADDR: 0000000000000000, KIND: 00000000
--------
APB read at clocks 22/23, time=230:
  A='h0014, D='h2385, ERROR='h0
UVM_INFO /home/harishkv/automation/Automated_regression/regression/final/agents/apb/src/apb_monitor.sv(34) @ 24000: uvm_test_top.m_env.m_apb_agent.m_apb_monitor [apb_monitor] ADDR: 0014, TYPE: 0, PRDATA: 2385, PWDATA: 0000
UVM_INFO /home/harishkv/automation/Automated_regression/regression/final/agents/apb/src/apb_reg_adapter.sv(30) @ 24000: reporter [apb_reg_adapter] ADDR: 0000000000000000, KIND: 00000000
UVM_INFO /home/harishkv/automation/Automated_regression/regression/final/env/src/scoreboard.sv(38) @ 24000: uvm_test_top.m_env.m_scoreboard [chip_scoreboard] Checking Read Value: ADDR: 0014, PRDATA: 2385, EXPECTED: 2385
UVM_INFO /home/harishkv/automation/Automated_regression/regression/final/env/src/scoreboard.sv(44) @ 24000: uvm_test_top.m_env.m_scoreboard [chip_scoreboard] SUCCESS: Data match
--------
APB write at clocks 32/33, time=330:
  A='h0015, D='h0693, ERROR='h0
UVM_INFO /home/harishkv/automation/Automated_regression/regression/final/agents/apb/src/apb_monitor.sv(34) @ 34000: uvm_test_top.m_env.m_apb_agent.m_apb_monitor [apb_monitor] ADDR: 0015, TYPE: 1, PRDATA: 2385, PWDATA: 0693
UVM_INFO /home/harishkv/automation/Automated_regression/regression/final/agents/apb/src/apb_reg_adapter.sv(30) @ 34000: reporter [apb_reg_adapter] ADDR: 0000000000000000, KIND: 00000000
--------
APB read at clocks 41/42, time=420:
  A='h0015, D='h0693, ERROR='h0
UVM_INFO /home/harishkv/automation/Automated_regression/regression/final/agents/apb/src/apb_monitor.sv(34) @ 43000: uvm_test_top.m_env.m_apb_agent.m_apb_monitor [apb_monitor] ADDR: 0015, TYPE: 0, PRDATA: 0693, PWDATA: 0000
UVM_INFO /home/harishkv/automation/Automated_regression/regression/final/agents/apb/src/apb_reg_adapter.sv(30) @ 43000: reporter [apb_reg_adapter] ADDR: 0000000000000000, KIND: 00000000
UVM_INFO /home/harishkv/automation/Automated_regression/regression/final/env/src/scoreboard.sv(38) @ 43000: uvm_test_top.m_env.m_scoreboard [chip_scoreboard] Checking Read Value: ADDR: 0015, PRDATA: 0693, EXPECTED: 0693
UVM_INFO /home/harishkv/automation/Automated_regression/regression/final/env/src/scoreboard.sv(44) @ 43000: uvm_test_top.m_env.m_scoreboard [chip_scoreboard] SUCCESS: Data match
--------
APB write at clocks 52/53, time=530:
  A='h0032, D='hc9a6, ERROR='h0
UVM_INFO /home/harishkv/automation/Automated_regression/regression/final/agents/apb/src/apb_monitor.sv(34) @ 54000: uvm_test_top.m_env.m_apb_agent.m_apb_monitor [apb_monitor] ADDR: 0032, TYPE: 1, PRDATA: 0693, PWDATA: c9a6
UVM_INFO /home/harishkv/automation/Automated_regression/regression/final/agents/apb/src/apb_reg_adapter.sv(30) @ 54000: reporter [apb_reg_adapter] ADDR: 0000000000000000, KIND: 00000000
--------
APB read at clocks 63/64, time=640:
  A='h0032, D='hc9a6, ERROR='h0
UVM_INFO /home/harishkv/automation/Automated_regression/regression/final/agents/apb/src/apb_monitor.sv(34) @ 65000: uvm_test_top.m_env.m_apb_agent.m_apb_monitor [apb_monitor] ADDR: 0032, TYPE: 0, PRDATA: c9a6, PWDATA: 0000
UVM_INFO /home/harishkv/automation/Automated_regression/regression/final/agents/apb/src/apb_reg_adapter.sv(30) @ 65000: reporter [apb_reg_adapter] ADDR: 0000000000000000, KIND: 00000000
UVM_INFO /home/harishkv/automation/Automated_regression/regression/final/env/src/scoreboard.sv(38) @ 65000: uvm_test_top.m_env.m_scoreboard [chip_scoreboard] Checking Read Value: ADDR: 0032, PRDATA: c9a6, EXPECTED: c9a6
UVM_INFO /home/harishkv/automation/Automated_regression/regression/final/env/src/scoreboard.sv(44) @ 65000: uvm_test_top.m_env.m_scoreboard [chip_scoreboard] SUCCESS: Data match
--------
APB write at clocks 74/75, time=750:
  A='h004d, D='h2f0b, ERROR='h0
UVM_INFO /home/harishkv/automation/Automated_regression/regression/final/agents/apb/src/apb_monitor.sv(34) @ 76000: uvm_test_top.m_env.m_apb_agent.m_apb_monitor [apb_monitor] ADDR: 004d, TYPE: 1, PRDATA: c9a6, PWDATA: 2f0b
UVM_INFO /home/harishkv/automation/Automated_regression/regression/final/agents/apb/src/apb_reg_adapter.sv(30) @ 76000: reporter [apb_reg_adapter] ADDR: 0000000000000000, KIND: 00000000
--------
APB read at clocks 84/85, time=850:
  A='h004d, D='h2f0b, ERROR='h0
UVM_INFO /home/harishkv/automation/Automated_regression/regression/final/agents/apb/src/apb_monitor.sv(34) @ 86000: uvm_test_top.m_env.m_apb_agent.m_apb_monitor [apb_monitor] ADDR: 004d, TYPE: 0, PRDATA: 2f0b, PWDATA: 0000
UVM_INFO /home/harishkv/automation/Automated_regression/regression/final/agents/apb/src/apb_reg_adapter.sv(30) @ 86000: reporter [apb_reg_adapter] ADDR: 0000000000000000, KIND: 00000000
UVM_INFO /home/harishkv/automation/Automated_regression/regression/final/env/src/scoreboard.sv(38) @ 86000: uvm_test_top.m_env.m_scoreboard [chip_scoreboard] Checking Read Value: ADDR: 004d, PRDATA: 2f0b, EXPECTED: 2f0b
UVM_INFO /home/harishkv/automation/Automated_regression/regression/final/env/src/scoreboard.sv(44) @ 86000: uvm_test_top.m_env.m_scoreboard [chip_scoreboard] SUCCESS: Data match
UVM_INFO /work/tools/synopsys/vcs/U-2023.03-1/etc/uvm-1.2/base/uvm_objection.svh(1276) @ 87000: reporter [TEST_DONE] 'run' phase is ready to proceed to the 'extract' phase
UVM_INFO /home/harishkv/automation/Automated_regression/regression/final/env/src/scoreboard.sv(52) @ 87000: uvm_test_top.m_env.m_scoreboard [chip_scoreboard] ---------- SIMULATION PASSED ----------
UVM_INFO /home/harishkv/automation/Automated_regression/regression/final/env/src/scoreboard.sv(54) @ 87000: uvm_test_top.m_env.m_scoreboard [chip_scoreboard] Error_Count = 00000000
UVM_INFO /work/tools/synopsys/vcs/U-2023.03-1/etc/uvm-1.2/base/uvm_report_server.svh(904) @ 87000: reporter [UVM/REPORT/SERVER] 
--- UVM Report Summary ---

** Report counts by severity
UVM_INFO :   30
UVM_WARNING :    0
UVM_ERROR :    0
UVM_FATAL :    0
** Report counts by id
[RNTST]     1
[TEST_DONE]     1
[UVM/RELNOTES]     1
[apb_monitor]     8
[apb_reg_adapter]     8
[apb_write_verify_test]     1
[chip_scoreboard]    10

$finish called from file "/work/tools/synopsys/vcs/U-2023.03-1/etc/uvm-1.2/base/uvm_root.svh", line 527.
$finish at simulation time                87000
           V C S   S i m u l a t i o n   R e p o r t 
Time: 870000 ps
CPU Time:      0.430 seconds;       Data structure size:   0.2Mb
Mon Apr 15 11:22:07 2024
